
**** 06/08/21 18:29:08 ******* PSpice 17.4.0 (Nov 2018) ******* ID# 0 ********

 ** Profile: "SCHEMATIC1-bias"  [ C:\Users\manso\Desktop\analog project 208453456\analogproject-pspicefiles\schematic1\bias.sim ] 


 ****     CIRCUIT DESCRIPTION


******************************************************************************




** Creating circuit file "bias.cir" 
** WARNING: THIS AUTOMATICALLY GENERATED FILE MAY BE OVERWRITTEN BY SUBSEQUENT SIMULATIONS

*Libraries: 
* Profile Libraries :
* Local Libraries :
.LIB "../../../analogproject-pspicefiles/analogproject.lib" 
* From [PSPICE NETLIST] section of C:\Users\manso\AppData\Roaming\SPB_Data\cdssetup\OrCAD_PSpice\17.4.0\PSpice.ini file:
.lib "nom.lib" 

*Analysis directives: 
.AC DEC 1000 1 1Geg
.OPTIONS ADVCONV
.PROBE64 V(alias(*)) I(alias(*)) W(alias(*)) D(alias(*)) NOISE(alias(*)) 
.INC "..\SCHEMATIC1.net" 



**** INCLUDING SCHEMATIC1.net ****
* source ANALOGPROJECT
V_VCC         N14687 0 5Vdc
V_VEE         0 N14629 5Vdc
Q_Q3         N14856 VIN1 N14567 Qbreakn 
Q_Q4         VOUT1 VIN2 N14571 QbreakN 
Q_Q2         N14575 N14613 N14629 QbreakN 6
Q_Q1         N14613 N14613 N14629 QbreakN 
R_RE1         N14575 N14567  50 TC=0,0 
R_RE2         N14575 N14571  50 TC=0,0 
R_Rref         N14613 N14687  4.65k TC=0,0 
Q_Q6         VOUT1 N14856 N14687 QbreakP 
Q_Q5         N14856 N14856 N14687 Qbreakp 
V_Vi1         VIN1 0 DC 0Vdc AC 1mVac 
V_Vi2         VIN2 0 DC 0Vdc AC -1mVac 
R_RB11         VIN1 N14687  50k TC=0,0 
R_RB12         N14629 VIN1  100k TC=0,0 
R_RB21         VIN2 N14687  50k TC=0,0 
R_RB22         N14629 VIN2  100k TC=0,0 
C_C1         N14575 N14567  1.8u  TC=0,0 
C_C2         N14571 N14575  1.8u  TC=0,0 
Q_Q7         VOUT2 N14613 N14629 QbreakN 
Q_Q8         N14687 VOUT1 VOUT2 QbreakN 
Q_Q9         VOUT3 N46102 N26939 QbreakN 1
R_Rload         0 N27866  56 TC=0,0 
R_RB23         N46102 N14687  240k TC=0,0 
R_RB24         N14629 N46102  50k TC=0,0 
R_RE3         N14629 N26939  170 TC=0,0 
C_C3         VOUT2 N46102  1.2n  TC=0,0 
C_C4         N14629 VOUT3  0.6n  TC=0,0 
Q_Q11         N57259 N14613 N14629 QbreakN 1
Q_Q12         N57259 N57259 N14687 QbreakP 
Q_Q10         VOUT3 N57259 N14687 QbreakP 
R_RB25         VOUT1 N14687  50k TC=0,0 
R_RB26         N14613 VOUT1  100k TC=0,0 
R_R1         VOUT3 N27866  49k TC=0,0 

**** RESUMING bias.cir ****
.END

**** 06/08/21 18:29:08 ******* PSpice 17.4.0 (Nov 2018) ******* ID# 0 ********

 ** Profile: "SCHEMATIC1-bias"  [ C:\Users\manso\Desktop\analog project 208453456\analogproject-pspicefiles\schematic1\bias.sim ] 


 ****     BJT MODEL PARAMETERS


******************************************************************************




               Qbreakn         QbreakP         
               NPN             PNP             
       LEVEL    1               1            
          IS  100.000000E-18  100.000000E-18 
          BF  100             100            
          NF    1               1            
         VAF  100             100            
          BR    1               1            
          NR    1               1            
         ISS    0               0            
          RE    0               0            
          RC    0               0            
         CJE    0               0            
         VJE     .75             .75         
         CJC    0               0            
         VJC     .75             .75         
         MJC     .33             .33         
        XCJC    1               1            
         CJS    0               0            
         VJS     .75             .75         
          KF    0               0            
          AF    1               1            
          CN    2.42            2.2          
           D     .87             .52         


**** 06/08/21 18:29:08 ******* PSpice 17.4.0 (Nov 2018) ******* ID# 0 ********

 ** Profile: "SCHEMATIC1-bias"  [ C:\Users\manso\Desktop\analog project 208453456\analogproject-pspicefiles\schematic1\bias.sim ] 


 ****     SMALL SIGNAL BIAS SOLUTION       TEMPERATURE =   27.000 DEG C


******************************************************************************



 NODE   VOLTAGE     NODE   VOLTAGE     NODE   VOLTAGE     NODE   VOLTAGE


( VIN1)    0.0000  ( VIN2)    0.0000  (VOUT1)    2.0014  (VOUT2)    1.2106      

(VOUT3)    4.9101  (N14567)    -.8184 (N14571)    -.8189 (N14575)   -1.1084     

(N14613)   -4.2095 (N14629)   -5.0000 (N14687)    5.0000 (N14856)    4.1811     

(N26939)   -4.7082 (N27866)     .0056 (N46102)   -3.9225 (N57259)    4.2087 




    VOLTAGE SOURCE CURRENTS
    NAME         CURRENT

    V_VCC       -1.957E-02
    V_VEE       -1.948E-02
    V_Vi1       -5.155E-06
    V_Vi2       -6.226E-06

    TOTAL POWER DISSIPATION   1.95E-01  WATTS



          JOB CONCLUDED

**** 06/08/21 18:29:08 ******* PSpice 17.4.0 (Nov 2018) ******* ID# 0 ********

 ** Profile: "SCHEMATIC1-bias"  [ C:\Users\manso\Desktop\analog project 208453456\analogproject-pspicefiles\schematic1\bias.sim ] 


 ****     JOB STATISTICS SUMMARY


******************************************************************************



  License check-out time            =        2.42
  Total job time (using Solver 1)   =         .53
